Bus, BasekV, Node1, Magnitude1, Angle1, pu1, Node2, Magnitude2, Angle2, pu2, Node3, Magnitude3, Angle3, pu3
"P30UDT9870-P30UHS8_1247X", 12.47, 1,    7199.55,    0.0,         1, 2,    7199.55, -120.0,         1, 3,    7199.55,  120.0,         1
"P30UDM6389", 0.208, 1,    114.746,  117.5,   0.95551, 2,    125.054,  -62.0,    1.0413, 0, 0, 0, 0
"P30ULV7055", 0.208, 1,    114.099,  117.5,   0.95012, 2,     126.21,  -62.0,     1.051, 3,          0,    0.0,         0
"P30UDT1554LV", 0.208, 1,     118.29,  117.9,   0.98502, 2,    118.735,  -61.9,   0.98872, 0, 0, 0, 0
"P30UDM6390", 0.208, 1,    117.704,  117.9,   0.98014, 2,    118.157,  -61.9,   0.98391, 0, 0, 0, 0
"P30ULV30721", 0.208, 1,    117.463,  117.9,   0.97813, 2,    117.919,  -61.9,   0.98193, 0, 0, 0, 0
"P30UDT1556LV", 0.208, 1,    117.426,  117.5,   0.97783, 2,    117.499,  -62.4,   0.97843, 0, 0, 0, 0
"P30ULV7057", 0.208, 1,    117.325,  117.5,   0.97698, 2,    117.398,  -62.4,   0.97759, 0, 0, 0, 0
"P30ULV40392", 0.208, 1,    117.421,  117.5,   0.97778, 2,    117.494,  -62.4,   0.97839, 3,          0,   -1.5,         0
"P30UDM6393", 0.208, 1,    117.161,  117.6,   0.97562, 2,    117.235,  -62.3,   0.97623, 0, 0, 0, 0
"P30ULV40391", 0.208, 1,    117.049,  117.6,   0.97469, 2,    117.123,  -62.3,    0.9753, 0, 0, 0, 0
"P30UDT1563LV", 0.208, 1,    116.237, -123.6,   0.96793, 2,    116.367,   56.6,   0.96901, 0, 0, 0, 0
"P30ULV7065", 0.208, 1,    115.995, -123.6,   0.96591, 2,    116.126,   56.6,     0.967, 0, 0, 0, 0
"P30UDM6418", 0.208, 1,    113.402, -123.7,   0.94432, 2,    113.552,   56.5,   0.94556, 0, 0, 0, 0
"P30ULV7130", 0.208, 1,    113.315, -123.7,   0.94359, 2,    113.465,   56.5,   0.94484, 0, 0, 0, 0
"P30UDM6419", 0.208, 1,    112.195, -123.8,   0.93426, 2,    112.353,   56.5,   0.93558, 0, 0, 0, 0
"P30ULV7131", 0.208, 1,     111.91, -123.8,   0.93189, 2,     112.07,   56.5,   0.93323, 0, 0, 0, 0
"P30UDM6420", 0.208, 1,      111.8, -123.8,   0.93098, 2,    111.962,   56.5,   0.93233, 0, 0, 0, 0
"P30ULV7133", 0.208, 1,     111.66, -123.8,   0.92981, 2,    111.823,   56.5,   0.93117, 3,          0,    0.0,         0
"P30UDM6423", 0.208, 1,     117.04,   -2.3,   0.97461, 2,    117.621,  177.8,   0.97945, 0, 0, 0, 0
"P30ULV40342", 0.208, 1,    117.038,   -2.3,    0.9746, 2,    117.624,  177.8,   0.97947, 3,          0, -135.0,         0
"P30UDM6422", 0.208, 1,    116.876,   -2.3,   0.97325, 2,    117.784,  177.8,   0.98081, 0, 0, 0, 0
"P30ULV40341", 0.208, 1,    116.574,   -2.3,   0.97073, 2,    118.083,  177.8,    0.9833, 3,          0,  123.7,         0
"P30UDT1564LV", 0.208, 1,    117.207,   -2.3,     0.976, 2,    117.455,  177.9,   0.97807, 0, 0, 0, 0
"P30UDM6424", 0.208, 1,    116.768,   -2.3,   0.97234, 2,    117.774,  177.8,   0.98072, 0, 0, 0, 0
"P30ULV40367", 0.208, 1,    116.718,   -2.3,   0.97193, 2,    117.725,  177.8,   0.98032, 0, 0, 0, 0
"P30UDM6421", 0.208, 1,    116.096,   -2.3,   0.96675, 2,    118.456,  177.8,   0.98641, 0, 0, 0, 0
"P30ULV7066", 0.208, 1,    115.662,   -2.3,   0.96314, 2,    118.898,  177.8,   0.99008, 3,          0,   33.7,         0
"P30UDT1578LV", 0.208, 1,    116.844, -123.6,   0.97298, 2,    117.066,   56.8,   0.97482, 0, 0, 0, 0
"P30ULV7106", 0.208, 1,    116.481, -123.6,   0.96996, 2,    117.239,   56.7,   0.97627, 3,          0,    0.0,         0
"P30ULV7135", 0.208, 1,    116.578, -123.5,   0.97077, 2,    116.801,   56.8,   0.97262, 0, 0, 0, 0
"P30ULV7137", 0.208, 1,    116.666, -123.6,    0.9715, 2,    116.889,   56.7,   0.97335, 0, 0, 0, 0
"P30UDM6518", 0.208, 1,    116.669, -123.5,   0.97152, 2,    116.892,   56.8,   0.97338, 0, 0, 0, 0
"P30ULV7105", 0.208, 1,    116.616, -123.5,   0.97108, 2,    116.839,   56.8,   0.97293, 0, 0, 0, 0
"P30UDM6520", 0.208, 1,    116.128, -123.6,   0.96702, 2,    116.357,   56.7,   0.96893, 0, 0, 0, 0
"P30ULV7108", 0.208, 1,    116.042, -123.6,    0.9663, 2,    116.272,   56.8,   0.96821, 0, 0, 0, 0
"P30ULV7109", 0.208, 1,    116.129, -123.6,   0.96703, 2,    116.359,   56.7,   0.96894, 3,       +Inf,    0.0,      +Inf
"P30ULV7138", 0.208, 1,    115.871, -123.6,   0.96488, 2,    116.102,   56.7,    0.9668, 0, 0, 0, 0
"P30UDT1579LV", 0.208, 1,    117.418, -123.1,   0.97776, 2,    118.029,   57.3,   0.98285, 0, 0, 0, 0
"P30ULV7110", 0.208, 1,    116.912, -123.3,   0.97355, 2,     119.13,   57.2,   0.99201, 3,          0,    0.0,         0
"P30ULV7116", 0.208, 1,    117.253, -123.1,   0.97638, 2,     118.11,   57.3,   0.98352, 3,       +Inf,    0.0,      +Inf
"P30UDM6527", 0.208, 1,    116.645, -123.2,   0.97132, 2,    117.772,   57.2,    0.9807, 0, 0, 0, 0
"P30ULV7120", 0.208, 1,    116.427, -123.2,    0.9695, 2,    117.699,   57.2,    0.9801, 3,          0,  123.7,         0
"P30UDM6528", 0.208, 1,    115.709, -123.2,   0.96353, 2,    119.694,   57.1,   0.99671, 0, 0, 0, 0
"P30ULV7125", 0.208, 1,    115.219, -123.2,   0.95945, 2,    120.172,   57.1,    1.0007, 3,          0,    0.0,         0
"P30UDT1580LV", 0.208, 1,    116.969, -123.3,   0.97402, 2,    117.068,   56.9,   0.97484, 0, 0, 0, 0
"P30ULV7115", 0.208, 1,    116.967, -123.3,     0.974, 2,    117.066,   56.9,   0.97483, 3,          0,    0.0,         0
"P30ULV7121", 0.208, 1,    116.872, -123.3,   0.97321, 2,    116.972,   56.9,   0.97405, 0, 0, 0, 0
"P30UDM6529", 0.208, 1,     116.14, -123.3,   0.96712, 2,    116.789,   56.8,   0.97252, 0, 0, 0, 0
"P30ULV7114", 0.208, 1,    115.562, -123.4,    0.9623, 2,     116.51,   56.8,    0.9702, 3,          0,    0.0,         0
"P30UDT1581LV", 0.208, 1,    117.264, -123.4,   0.97648, 2,    118.427,   57.2,   0.98616, 0, 0, 0, 0
"P30ULV7128", 0.208, 1,    116.983, -123.4,   0.97414, 2,    118.876,   57.1,    0.9899, 3,          0,   90.0,         0
"P30UDM6534", 0.208, 1,    113.562, -123.6,   0.94565, 2,     120.84,   56.9,    1.0063, 0, 0, 0, 0
"P30ULV7129", 0.208, 1,    113.073, -123.6,   0.94158, 2,      120.4,   56.9,    1.0026, 0, 0, 0, 0
"P30UDM6532", 0.208, 1,    107.755, -123.8,   0.89729, 2,    127.104,   56.6,    1.0584, 0, 0, 0, 0
"P30ULV7122", 0.208, 1,    106.679, -123.9,   0.88833, 2,    128.248,   56.6,    1.0679, 3,          0,  -90.0,         0
"P30UDM12668", 0.208, 1,    115.105, -122.7,    0.9585, 2,    115.171,   57.5,   0.95905, 0, 0, 0, 0
"P30ULV10318", 0.208, 1,    114.722, -122.7,   0.95531, 2,    114.788,   57.5,   0.95586, 0, 0, 0, 0
"P30UDT2794LV", 0.208, 1,    116.202, -122.6,   0.96764, 2,    116.265,   57.5,   0.96816, 0, 0, 0, 0
"P30UDM12669", 0.208, 1,    115.543, -122.7,   0.96215, 2,    115.608,   57.4,   0.96269, 0, 0, 0, 0
"P30ULV43309", 0.208, 1,    115.426, -122.7,   0.96117, 2,    115.491,   57.4,   0.96172, 0, 0, 0, 0
"P30UDT2795LV", 0.208, 1,    116.565,  117.7,   0.97066, 2,    116.606,  -62.2,     0.971, 0, 0, 0, 0
"P30ULV10320", 0.208, 1,    116.391,  117.7,   0.96921, 2,    116.433,  -62.2,   0.96956, 0, 0, 0, 0
"P30UDT2796LV", 0.208, 1,    116.542,   -2.4,   0.97047, 2,    116.582,  177.7,    0.9708, 0, 0, 0, 0
"P30ULV10321", 0.208, 1,    116.354,   -2.4,    0.9689, 2,    116.394,  177.7,   0.96923, 0, 0, 0, 0
"P30UDM12672", 0.208, 1,    116.108,   -2.4,   0.96685, 2,    116.148,  177.7,   0.96719, 0, 0, 0, 0
"P30ULV10322", 0.208, 1,    115.898,   -2.4,   0.96511, 2,     115.94,  177.7,   0.96545, 0, 0, 0, 0
"P30UDM12673", 0.208, 1,    116.358,   -2.4,   0.96893, 2,    116.398,  177.7,   0.96926, 0, 0, 0, 0
"P30ULV43286", 0.208, 1,    116.146,   -2.4,   0.96716, 2,    116.186,  177.7,    0.9675, 0, 0, 0, 0
"P30UDT2801LV", 0.208, 1,    116.465,  117.7,   0.96983, 2,    116.517,  -62.2,   0.97025, 0, 0, 0, 0
"P30ULV10327", 0.208, 1,    115.913,  117.7,   0.96522, 2,    115.965,  -62.2,   0.96566, 0, 0, 0, 0
"P30UDT3440LV", 0.208, 1,    117.298, -122.9,   0.97676, 2,    117.454,   57.4,   0.97806, 0, 0, 0, 0
"P30ULV30651", 0.208, 1,    117.075, -122.9,    0.9749, 2,    117.233,   57.4,   0.97622, 0, 0, 0, 0
"P30ULV30666", 0.208, 1,    117.219, -122.9,    0.9761, 2,    117.375,   57.4,    0.9774, 0, 0, 0, 0
"P30ULV30686", 0.208, 1,    116.867, -122.9,   0.97317, 2,    117.026,   57.3,    0.9745, 0, 0, 0, 0
"P30UDM16140", 0.208, 1,    117.216, -123.0,   0.97607, 2,    117.382,   57.2,   0.97746, 0, 0, 0, 0
"P30ULV12272", 0.208, 1,    117.259, -123.1,   0.97644, 2,    117.433,   57.1,   0.97789, 3,          0,    0.0,         0
"P30ULV30633", 0.208, 1,    117.219, -123.1,    0.9761, 2,     117.39,   57.2,   0.97752, 3,          0,    0.0,         0
"P30ULV30661", 0.208, 1,    117.123, -123.0,    0.9753, 2,    117.291,   57.2,    0.9767, 3,          0, -134.8,         0
"P30UDM16144", 0.208, 1,    115.491, -122.9,   0.96171, 2,    118.076,   57.3,   0.98323, 0, 0, 0, 0
"P30ULV30663", 0.208, 1,     115.35, -122.9,   0.96054, 2,    117.943,   57.3,   0.98213, 0, 0, 0, 0
"P30ULV30680", 0.208, 1,    115.412, -122.9,   0.96106, 2,    118.002,   57.3,   0.98262, 0, 0, 0, 0
"P30ULV30703", 0.208, 1,    115.465, -122.9,   0.96149, 2,    118.084,   57.3,    0.9833, 3,          0,    0.0,         0
"P30ULV30718", 0.208, 1,    114.142, -123.0,   0.95048, 2,    119.451,   57.2,   0.99469, 3,          0,    0.0,         0
"P30UDM16148", 0.208, 1,    115.051, -122.9,   0.95805, 2,    117.661,   57.3,   0.97978, 0, 0, 0, 0
"P30ULV30691", 0.208, 1,    114.747, -122.9,   0.95552, 2,    117.374,   57.3,    0.9774, 0, 0, 0, 0
"P30UDT3614LV", 0.208, 1,    116.705, -123.0,   0.97182, 2,    117.041,   57.3,   0.97462, 0, 0, 0, 0
"P30ULV12649", 0.208, 1,    116.436, -123.0,   0.96958, 2,    117.081,   57.3,   0.97495, 3,       +Inf,    0.0,      +Inf
"P30ULV31677", 0.208, 1,    116.416, -123.0,   0.96942, 2,    117.705,   57.2,   0.98015, 3,          0,   36.9,         0
"P30ULV31684", 0.208, 1,    116.149, -123.0,    0.9672, 2,    116.491,   57.3,   0.97004, 0, 0, 0, 0
"P30UDM17163", 0.208, 1,    115.843, -123.0,   0.96464, 2,    116.978,   57.3,   0.97409, 0, 0, 0, 0
"P30ULV12647", 0.208, 1,    115.591, -123.0,   0.96255, 2,    116.733,   57.3,   0.97205, 0, 0, 0, 0
"P30ULV12669", 0.208, 1,    115.468, -123.0,   0.96152, 2,    117.338,   57.3,   0.97709, 3,       +Inf,  -90.0,      +Inf
"P30ULV31654", 0.208, 1,    115.842, -123.0,   0.96463, 2,    116.979,   57.3,    0.9741, 3,          0,    0.0,         0
"P30ULV31662", 0.208, 1,    115.722, -123.0,   0.96364, 2,     116.86,   57.3,   0.97311, 0, 0, 0, 0
"P30UDM17166", 0.208, 1,     116.48, -123.0,   0.96994, 2,    116.817,   57.3,   0.97276, 0, 0, 0, 0
"P30ULV31627", 0.208, 1,    116.343, -123.0,   0.96881, 2,    116.682,   57.3,   0.97163, 0, 0, 0, 0
"P30ULV31636", 0.208, 1,    116.443, -123.0,   0.96964, 2,    116.781,   57.3,   0.97245, 0, 0, 0, 0
"P30ULV31659", 0.208, 1,    116.414, -123.0,    0.9694, 2,    116.752,   57.3,   0.97222, 0, 0, 0, 0
"P30UDT3615LV", 0.208, 1,    117.236, -122.5,   0.97625, 2,    117.336,   57.6,   0.97708, 0, 0, 0, 0
"P30ULV30632", 0.208, 1,    117.106, -122.5,   0.97516, 2,    117.207,   57.6,     0.976, 0, 0, 0, 0
"P30ULV30640", 0.208, 1,    117.126, -122.5,   0.97533, 2,    117.226,   57.6,   0.97616, 0, 0, 0, 0
"P30ULV31701", 0.208, 1,    117.232, -122.5,   0.97621, 2,    117.332,   57.6,   0.97704, 3,          0,    0.0,         0
"P30ULV31703", 0.208, 1,    117.235, -122.5,   0.97623, 2,    117.335,   57.6,   0.97707, 3,          0,    0.0,         0
"P30UDM17173", 0.208, 1,    116.813, -122.5,   0.97272, 2,    116.914,   57.6,   0.97356, 0, 0, 0, 0
"P30ULV12648", 0.208, 1,    116.538, -122.5,   0.97043, 2,    116.641,   57.6,   0.97129, 0, 0, 0, 0
"P30ULV12670", 0.208, 1,     116.71, -122.5,   0.97186, 2,    116.813,   57.6,   0.97272, 3,          0,    0.0,         0
"P30UDM17177", 0.208, 1,    116.698, -122.5,   0.97176, 2,    117.728,   57.6,   0.98034, 0, 0, 0, 0
"P30ULV30648", 0.208, 1,     116.25, -122.5,   0.96804, 2,    118.169,   57.6,   0.98401, 3,          0, -135.0,         0
"P30ULV30670", 0.208, 1,    116.605, -122.5,   0.97099, 2,    117.637,   57.6,   0.97958, 0, 0, 0, 0
"P30ULV31715", 0.208, 1,    116.688, -122.5,   0.97168, 2,    117.723,   57.6,    0.9803, 3,       +Inf,   90.0,      +Inf
"P30UDT4321LV", 0.208, 1,    116.529,   -3.0,   0.97036, 2,    116.627,  177.2,   0.97117, 0, 0, 0, 0
"P30ULV29750", 0.208, 1,    116.393,   -3.0,   0.96922, 2,    116.492,  177.2,   0.97005, 0, 0, 0, 0
"P30ULV29786", 0.208, 1,    116.171,   -3.0,   0.96737, 2,    116.271,  177.3,   0.96821, 0, 0, 0, 0
"P30UDM20326", 0.208, 1,    116.097,   -3.1,   0.96676, 2,      116.2,  177.2,   0.96762, 0, 0, 0, 0
"P30ULV14162", 0.208, 1,     114.24,   -3.1,    0.9513, 2,    114.358,  177.1,   0.95228, 0, 0, 0, 0
"P30ULV29739", 0.208, 1,    116.103,   -3.2,   0.96681, 2,    116.212,  177.0,   0.96772, 3,          0,    4.8,         0
"P30UDM20327", 0.208, 1,    115.789,   -3.0,   0.96419, 2,    115.894,  177.2,   0.96507, 0, 0, 0, 0
"P30ULV29732", 0.208, 1,    115.541,   -3.0,   0.96213, 2,    115.648,  177.2,   0.96302, 0, 0, 0, 0
"P30UDM20330", 0.208, 1,    116.023,   -3.0,   0.96614, 2,    116.125,  177.2,   0.96699, 0, 0, 0, 0
"P30ULV29762", 0.208, 1,    115.195,   -3.0,   0.95925, 2,    115.302,  177.3,   0.96014, 0, 0, 0, 0
"P30UDM20332", 0.208, 1,    115.513,   -3.0,   0.96189, 2,    115.618,  177.2,   0.96277, 0, 0, 0, 0
"P30ULV29795", 0.208, 1,    114.517,   -3.0,    0.9536, 2,    114.629,  177.2,   0.95454, 0, 0, 0, 0
"P30UDT4322LV", 0.208, 1,    117.325,   -2.2,   0.97699, 2,    117.432,  177.8,   0.97787, 0, 0, 0, 0
"P30ULV14164", 0.208, 1,    117.325,   -2.3,   0.97699, 2,    117.434,  177.8,   0.97789, 3,          0,    0.0,         0
"P30ULV29798", 0.208, 1,    116.223,   -2.4,   0.96781, 2,    118.565,  177.8,   0.98731, 3,          0,    0.0,         0
"P30UDM20334", 0.208, 1,    117.239,   -2.2,   0.97627, 2,    117.345,  177.9,   0.97715, 0, 0, 0, 0
"P30ULV14165", 0.208, 1,    117.093,   -2.2,   0.97506, 2,      117.2,  177.9,   0.97595, 0, 0, 0, 0
"P30UDT4323LV", 0.208, 1,    117.488,  117.2,   0.97835, 2,    117.614,  -62.6,   0.97939, 0, 0, 0, 0
"P30ULV14193", 0.208, 1,    116.983,  117.1,   0.97414, 2,    117.112,  -62.6,   0.97521, 0, 0, 0, 0
"P30UDM20336", 0.208, 1,    116.689,  117.2,   0.97169, 2,    116.819,  -62.6,   0.97277, 0, 0, 0, 0
"P30ULV14166", 0.208, 1,    116.273,  117.1,   0.96823, 2,    116.406,  -62.6,   0.96933, 0, 0, 0, 0
"P30UDM20339", 0.208, 1,    116.547,  117.2,   0.97051, 2,    117.724,  -62.6,    0.9803, 0, 0, 0, 0
"P30ULV29818", 0.208, 1,    116.281,  117.1,   0.96829, 2,    117.464,  -62.6,   0.97815, 0, 0, 0, 0
"P30UDM20338", 0.208, 1,    116.026,  117.2,   0.96616, 2,    118.242,  -62.7,   0.98462, 0, 0, 0, 0
"P30ULV29807", 0.208, 1,    115.577,  117.2,   0.96243, 2,    118.687,  -62.7,   0.98833, 3,          0,    0.0,         0
"P30UDT4327LV", 0.208, 1,    117.275, -123.0,   0.97657, 2,    117.271,   57.1,   0.97654, 0, 0, 0, 0
"P30ULV14173", 0.208, 1,     117.04, -123.0,   0.97462, 2,    117.037,   57.1,   0.97459, 0, 0, 0, 0
"P30ULV29731", 0.208, 1,    117.239, -123.0,   0.97627, 2,    117.236,   57.1,   0.97624, 0, 0, 0, 0
"P30UDM20353", 0.208, 1,    117.086, -123.1,     0.975, 2,    117.084,   57.0,   0.97498, 0, 0, 0, 0
"P30ULV14171", 0.208, 1,    116.925, -123.2,   0.97365, 2,    116.923,   56.9,   0.97364, 3,          0,  135.0,         0
"P30UDM20356", 0.208, 1,      116.3, -123.0,   0.96845, 2,    116.347,   57.1,   0.96884, 0, 0, 0, 0
"P30ULV14175", 0.208, 1,    116.296, -123.0,   0.96841, 2,    116.343,   57.1,   0.96881, 3,          0,    0.0,         0
"P30UDM20357", 0.208, 1,    115.537, -122.9,    0.9621, 2,    115.586,   57.2,    0.9625, 0, 0, 0, 0
"P30ULV14176", 0.208, 1,    115.267, -122.9,   0.95985, 2,    115.316,   57.2,   0.96026, 0, 0, 0, 0
"P30UDM20358", 0.208, 1,     115.18, -122.9,   0.95913, 2,     115.23,   57.2,   0.95954, 0, 0, 0, 0
"P30ULV29751", 0.208, 1,    114.961, -122.9,    0.9573, 2,    115.011,   57.2,   0.95771, 0, 0, 0, 0
"P30UDT4328LV", 0.208, 1,    117.154, -122.9,   0.97556, 2,    117.199,   57.2,   0.97593, 0, 0, 0, 0
"P30UDM20359", 0.208, 1,    117.132, -122.9,   0.97538, 2,    117.177,   57.2,   0.97575, 0, 0, 0, 0
"P30ULV29782", 0.208, 1,    117.101, -122.9,   0.97512, 2,    117.145,   57.2,   0.97549, 0, 0, 0, 0
"P30UDM20372", 0.208, 1,    116.668, -122.7,   0.97151, 2,    116.715,   57.4,   0.97191, 0, 0, 0, 0
"P30ULV29691", 0.208, 1,    116.673, -122.8,   0.97155, 2,    116.722,   57.3,   0.97196, 3,          0,   63.4,         0
"P30ULV30794", 0.208, 1,    116.137, -122.7,   0.96709, 2,    116.185,   57.4,    0.9675, 0, 0, 0, 0
"P30UDT4333LV", 0.208, 1,     117.39, -122.6,   0.97752, 2,    117.433,   57.5,   0.97788, 0, 0, 0, 0
"P30UDM20373", 0.208, 1,    116.827, -122.6,   0.97284, 2,    117.477,   57.5,   0.97825, 0, 0, 0, 0
"P30ULV30777", 0.208, 1,    116.617, -122.6,   0.97109, 2,    117.271,   57.5,   0.97653, 0, 0, 0, 0
"P30UDM20371", 0.208, 1,    116.525, -122.6,   0.97032, 2,    117.778,   57.5,   0.98076, 0, 0, 0, 0
"P30ULV14186", 0.208, 1,    116.289, -122.6,   0.96836, 2,    118.013,   57.5,   0.98272, 3,          0,   30.3,         0
"P30UDT4334LV", 0.208, 1,    117.141,  116.7,   0.97545, 2,    117.226,  -63.0,   0.97616, 0, 0, 0, 0
"P30ULV14187", 0.208, 1,    116.689,  116.7,   0.97169, 2,    116.777,  -63.0,   0.97242, 0, 0, 0, 0
"P30ULV29855", 0.208, 1,     116.69,  116.7,    0.9717, 2,    116.778,  -63.0,   0.97243, 0, 0, 0, 0
"P30ULV29897", 0.208, 1,    117.082,  116.7,   0.97496, 2,    117.167,  -63.0,   0.97567, 0, 0, 0, 0
"P30ULV36657", 0.208, 1,    117.009,  116.7,   0.97435, 2,    117.095,  -63.0,   0.97507, 0, 0, 0, 0
"P30UDM20376", 0.208, 1,    115.806,  116.7,   0.96434, 2,      115.9,  -63.0,   0.96512, 0, 0, 0, 0
"P30ULV14188", 0.208, 1,     114.82,  116.7,   0.95612, 2,     114.92,  -63.0,   0.95696, 3,          0, -108.4,         0
"P30UDT4335LV", 0.208, 1,    117.243,  117.1,    0.9763, 2,    117.344,  -62.7,   0.97715, 0, 0, 0, 0
"P30ULV29859", 0.208, 1,     116.83,  117.1,   0.97286, 2,    116.933,  -62.7,   0.97372, 0, 0, 0, 0
"P30ULV29889", 0.208, 1,    116.941,  117.1,   0.97379, 2,    117.044,  -62.7,   0.97464, 0, 0, 0, 0
"P30UDM20380", 0.208, 1,    116.888,  117.1,   0.97334, 2,    116.991,  -62.7,    0.9742, 0, 0, 0, 0
"P30ULV14189", 0.208, 1,    116.525,  117.1,   0.97033, 2,     116.63,  -62.7,    0.9712, 0, 0, 0, 0
"P30UDM20382", 0.208, 1,    116.113,  117.0,   0.96689, 2,     116.22,  -62.7,   0.96778, 0, 0, 0, 0
"P30ULV29869", 0.208, 1,    115.499,  117.0,   0.96178, 2,    115.609,  -62.8,    0.9627, 0, 0, 0, 0
"P30ULV29898", 0.208, 1,    115.403,  117.0,   0.96098, 2,    115.514,  -62.8,    0.9619, 0, 0, 0, 0
"P30UDT4336LV", 0.208, 1,    117.218, -122.8,   0.97609, 2,    117.261,   57.3,   0.97645, 0, 0, 0, 0
"P30ULV14190", 0.208, 1,     116.94, -122.8,   0.97378, 2,    116.983,   57.3,   0.97414, 0, 0, 0, 0
"P30UDM20386", 0.208, 1,    116.085,   -2.8,   0.96666, 2,    118.136,  177.4,   0.98374, 0, 0, 0, 0
"P30ULV14191", 0.208, 1,    115.635,   -2.8,   0.96291, 2,    118.587,  177.4,   0.98749, 3,          0,  123.7,         0
"P30ULV14192", 0.208, 1,    116.077,   -2.8,   0.96659, 2,    118.174,  177.4,   0.98406, 3,          0,    0.0,         0
"P30UDT4337LV", 0.208, 1,    117.009,   -2.6,   0.97435, 2,    117.143,  177.5,   0.97547, 0, 0, 0, 0
"P30UDM20388", 0.208, 1,    114.553,   -2.8,   0.95391, 2,    114.701,  177.4,   0.95513, 0, 0, 0, 0
"P30ULV36713", 0.208, 1,    113.795,   -2.8,   0.94759, 2,    113.946,  177.4,   0.94885, 0, 0, 0, 0
"P30UDT4338LV", 0.208, 1,    117.136,   -2.6,   0.97541, 2,    117.892,  177.8,    0.9817, 0, 0, 0, 0
"P30ULV14200", 0.208, 1,    116.662,   -2.6,   0.97147, 2,    117.429,  177.8,   0.97785, 0, 0, 0, 0
"P30ULV29843", 0.208, 1,    117.081,   -2.6,   0.97495, 2,    117.838,  177.8,   0.98125, 0, 0, 0, 0
"P30UDM20391", 0.208, 1,     117.06,   -2.6,   0.97477, 2,    117.817,  177.8,   0.98108, 0, 0, 0, 0
"P30ULV29833", 0.208, 1,     116.97,   -2.6,   0.97403, 2,    117.729,  177.8,   0.98035, 0, 0, 0, 0
"P30UDM20393", 0.208, 1,    114.903,   -2.7,   0.95682, 2,    120.269,  177.6,    1.0015, 0, 0, 0, 0
